
SetupTitle, output RollOut
PrimitiveTest, I/V Sweep
TestParameter, Context.MainFrame, 4155C
TestParameter, Channel.UnitType, SMU, SMU, SMU
TestParameter, Channel.Unit, SMU1:MP, SMU2:MP, SMU3:MP
TestParameter, Channel.IName, ID, IG, IS
TestParameter, Channel.VName, VD, VG, VS
TestParameter, Channel.Mode, V, V, COMMON
TestParameter, Channel.Func, VAR1, VAR2, CONST
TestParameter, Channel.Index, 
TestParameter, Channel.Time, 
TestParameter, Measurement.Port.Unit, SMU1:MP, SMU2:MP, SMU3:MP
TestParameter, Measurement.Port.SeriesResistor, NONE, NONE, NONE
TestParameter, Measurement.Port.Filter, ON, ON, ON
TestParameter, Measurement.Primary.Locus, Single
TestParameter, Measurement.Primary.Scale, LINEAR
TestParameter, Measurement.Primary.Start, 0
TestParameter, Measurement.Primary.Stop, 7
TestParameter, Measurement.Primary.Step, 0.1
TestParameter, Measurement.Primary.Compliance, 0.01
TestParameter, Measurement.Primary.PowerCompliance, 0
TestParameter, Measurement.Aborting.Condition, CONTINUE AT ANY
TestParameter, Measurement.PostOutput.Value, START
TestParameter, Measurement.PostOutput.Retention, OFF
TestParameter, Measurement.Secondary.Start, -1
TestParameter, Measurement.Secondary.Count, 9
TestParameter, Measurement.Secondary.Step, 1
TestParameter, Measurement.Secondary.Compliance, 1E-08
TestParameter, Measurement.Secondary.PowerCompliance, 0
TestParameter, Measurement.Bias.Source, 0, -1, 0
TestParameter, Measurement.Bias.Compliance, 0.01, 1E-08, 0.1
TestParameter, Measurement.Monitor.Unit, SMU1:MP, SMU2:MP, SMU3:MP
TestParameter, Measurement.Monitor.Adc, HR ADC, HR ADC, HR ADC
TestParameter, Measurement.Monitor.RangingMode, LIMITED, LIMITED, LIMITED
TestParameter, Measurement.Monitor.RangeBoundary, 1nA, 1nA, 1nA
TestParameter, Measurement.Monitor.RangeRating, BY FULL RANGE, BY FULL RANGE, BY FULL RANGE
TestParameter, Measurement.Monitor.RangeRatingCoeff, 50, 50, 50
TestParameter, Measurement.Timing.Hold, 0
TestParameter, Measurement.Timing.Delay, 0
TestParameter, Measurement.Adc.HighResolution.AutoZero, OFF
TestParameter, Measurement.Adc.HighResolution.Mode, AUTO
TestParameter, Measurement.Adc.HighResolution.Coeff, 6
TestParameter, Measurement.Ag16440ASelector.SemiconductorRelay.Channel1, DEFAULT
TestParameter, Measurement.Ag16440ASelector.SemiconductorRelay.Channel3, DEFAULT
TestParameter, Function.Analysis.Name, absIg, absId
TestParameter, Function.Analysis.Unit, A, A
TestParameter, Function.Analysis.Definition, abs(IG), abs(ID)
TestParameter, Output.Graph.Enabled, true
TestParameter, Output.Graph.AutoScaling, false
TestParameter, Output.Graph.XAxis.Data, VD
TestParameter, Output.Graph.XAxis.Scale, Linear
TestParameter, Output.Graph.XAxis.Left, 0
TestParameter, Output.Graph.XAxis.Right, 8
TestParameter, Output.Graph.XAxis.RunTimeAutoScale, true
TestParameter, Output.Graph.YAxis.Data, absId, absIg
TestParameter, Output.Graph.YAxis.Scale, Linear, Log
TestParameter, Output.Graph.YAxis.Bottom, 0, 0
TestParameter, Output.Graph.YAxis.Top, 1, 1
TestParameter, Output.Graph.YAxis.Group, , 
TestParameter, Output.Graph.YAxis.RunTimeAutoScale, true, true
TestParameter, Output.List.Data, VG, IG, ID, IS, IS, VD, absIg, absId
TestParameter, AutoAnalysis.Interpolation, false
TestParameter, AutoAnalysis.Var2StepCount, 1
TestParameter, AutoAnalysis.Var2StepScript, 
TestParameter, AutoAnalysis.Line1.Enabled, false
TestParameter, AutoAnalysis.Line1.Type, 1
TestParameter, AutoAnalysis.Line1.Fix, True
TestParameter, AutoAnalysis.Line1.YAxis, 0
TestParameter, AutoAnalysis.Line1.Point1.Type, 0
TestParameter, AutoAnalysis.Line1.Point1.XY.X, 
TestParameter, AutoAnalysis.Line1.Point1.XY.Y, 
TestParameter, AutoAnalysis.Line1.Point1.Data.Var, 
TestParameter, AutoAnalysis.Line1.Point1.Data.Condition, 
TestParameter, AutoAnalysis.Line1.Point1.Data.Start, false
TestParameter, AutoAnalysis.Line1.Point1.Data.StartVar, 
TestParameter, AutoAnalysis.Line1.Point1.Data.StartCondition, 
TestParameter, AutoAnalysis.Line1.Point2.Type, 0
TestParameter, AutoAnalysis.Line1.Point2.XY.X, 
TestParameter, AutoAnalysis.Line1.Point2.XY.Y, 
TestParameter, AutoAnalysis.Line1.Point2.Data.Var, 
TestParameter, AutoAnalysis.Line1.Point2.Data.Condition, 
TestParameter, AutoAnalysis.Line1.Point2.Data.Start, false
TestParameter, AutoAnalysis.Line1.Point2.Data.StartVar, 
TestParameter, AutoAnalysis.Line1.Point2.Data.StartCondition, 
TestParameter, AutoAnalysis.Line1.GradientExpr, 0
TestParameter, AutoAnalysis.Line2.Enabled, false
TestParameter, AutoAnalysis.Line2.Type, 1
TestParameter, AutoAnalysis.Line2.Fix, True
TestParameter, AutoAnalysis.Line2.YAxis, 0
TestParameter, AutoAnalysis.Line2.Point1.Type, 0
TestParameter, AutoAnalysis.Line2.Point1.XY.X, 
TestParameter, AutoAnalysis.Line2.Point1.XY.Y, 
TestParameter, AutoAnalysis.Line2.Point1.Data.Var, 
TestParameter, AutoAnalysis.Line2.Point1.Data.Condition, 
TestParameter, AutoAnalysis.Line2.Point1.Data.Start, false
TestParameter, AutoAnalysis.Line2.Point1.Data.StartVar, 
TestParameter, AutoAnalysis.Line2.Point1.Data.StartCondition, 
TestParameter, AutoAnalysis.Line2.Point2.Type, 0
TestParameter, AutoAnalysis.Line2.Point2.XY.X, 
TestParameter, AutoAnalysis.Line2.Point2.XY.Y, 
TestParameter, AutoAnalysis.Line2.Point2.Data.Var, 
TestParameter, AutoAnalysis.Line2.Point2.Data.Condition, 
TestParameter, AutoAnalysis.Line2.Point2.Data.Start, false
TestParameter, AutoAnalysis.Line2.Point2.Data.StartVar, 
TestParameter, AutoAnalysis.Line2.Point2.Data.StartCondition, 
TestParameter, AutoAnalysis.Line2.GradientExpr, 0
TestParameter, AutoAnalysis.Marker.Enabled, false
TestParameter, AutoAnalysis.Marker.Data.Var, 
TestParameter, AutoAnalysis.Marker.Data.Condition, 
TestParameter, AutoAnalysis.Marker.Data.Start, false
TestParameter, AutoAnalysis.Marker.Data.StartVar, 
TestParameter, AutoAnalysis.Marker.Data.StartCondition, 
MetaData, TestRecord.EntryPoint, true
MetaData, TestRecord.RecordTime, 03/10/2020 09:30:48
MetaData, TestRecord.TestTarget, P1G150-5
MetaData, TestRecord.IterationIndex, 1
MetaData, TestRecord.Preservation, true
MetaData, TestRecord.Flag, 
MetaData, TestRecord.Remarks, output
MetaData, TestRecord.LinkKey, e6d4933e-49b7-4159-9ee5-1676ffa06402
MetaData, TestRecord.Parameters, 
Dimension1, 71, 71, 71, 71, 71, 71, 71
Dimension2, 9, 9, 9, 9, 9, 9, 9
DataName, VD, VG, ID, IG, IS, absIg, absId
DataValue, 0, -1, 1.1520000000000001E-12, 5.9E-14, -4.6200000000000005E-13, 5.9E-14, 1.1520000000000001E-12
DataValue, 0.1, -1, 1.2574200000000001E-10, -2.06E-13, -1.34471E-10, 2.06E-13, 1.2574200000000001E-10
DataValue, 0.2, -1, 1.59965E-10, -3.65E-13, -1.66583E-10, 3.65E-13, 1.59965E-10
DataValue, 0.3, -1, 1.7799600000000002E-10, -6.0100000000000006E-13, -1.82134E-10, 6.0100000000000006E-13, 1.7799600000000002E-10
DataValue, 0.4, -1, 1.9197200000000003E-10, -5.7E-13, -1.9672700000000003E-10, 5.7E-13, 1.9197200000000003E-10
DataValue, 0.5, -1, 2.04029E-10, -5.38E-13, -2.0602200000000002E-10, 5.38E-13, 2.04029E-10
DataValue, 0.6, -1, 2.11164E-10, -1.53E-13, -2.1299400000000001E-10, 1.53E-13, 2.11164E-10
DataValue, 0.70000000000000007, -1, 2.1769600000000003E-10, 8.1000000000000008E-14, -2.21364E-10, 8.1000000000000008E-14, 2.1769600000000003E-10
DataValue, 0.8, -1, 2.25387E-10, -1.46E-13, -2.2648800000000002E-10, 1.46E-13, 2.25387E-10
DataValue, 0.9, -1, 2.31299E-10, -1.8000000000000002E-13, -2.3079500000000003E-10, 1.8000000000000002E-13, 2.31299E-10
DataValue, 1, -1, 2.36633E-10, 1.6200000000000002E-13, -2.35537E-10, 1.6200000000000002E-13, 2.36633E-10
DataValue, 1.1, -1, 2.4105200000000003E-10, 3.2E-14, -2.3872600000000003E-10, 3.2E-14, 2.4105200000000003E-10
DataValue, 1.2, -1, 2.43268E-10, -1E-13, -2.42112E-10, 1E-13, 2.43268E-10
DataValue, 1.3, -1, 2.4452E-10, -9.4E-14, -2.4570500000000003E-10, 9.4E-14, 2.4452E-10
DataValue, 1.4000000000000001, -1, 2.4831400000000003E-10, -1.3000000000000001E-14, -2.46249E-10, 1.3000000000000001E-14, 2.4831400000000003E-10
DataValue, 1.5, -1, 2.4915E-10, -1.3E-13, -2.49766E-10, 1.3E-13, 2.4915E-10
DataValue, 1.6, -1, 2.53234E-10, 1.1500000000000002E-13, -2.51837E-10, 1.1500000000000002E-13, 2.53234E-10
DataValue, 1.7000000000000002, -1, 2.5229800000000003E-10, -1.9E-14, -2.51246E-10, 1.9E-14, 2.5229800000000003E-10
DataValue, 1.8, -1, 2.5348600000000004E-10, -2.6000000000000003E-14, -2.5255100000000003E-10, 2.6000000000000003E-14, 2.5348600000000004E-10
DataValue, 1.9000000000000001, -1, 2.5505900000000004E-10, 6.0000000000000005E-15, -2.53754E-10, 6.0000000000000005E-15, 2.5505900000000004E-10
DataValue, 2, -1, 2.5485900000000003E-10, -6.6000000000000009E-14, -2.5447900000000003E-10, 6.6000000000000009E-14, 2.5485900000000003E-10
DataValue, 2.1, -1, 2.5526400000000004E-10, -1.17E-13, -2.53874E-10, 1.17E-13, 2.5526400000000004E-10
DataValue, 2.2, -1, 2.55991E-10, 9.8000000000000012E-14, -2.5578E-10, 9.8000000000000012E-14, 2.55991E-10
DataValue, 2.3000000000000003, -1, 2.5401100000000004E-10, 4.0000000000000006E-14, -2.5624000000000004E-10, 4.0000000000000006E-14, 2.5401100000000004E-10
DataValue, 2.4, -1, 2.56086E-10, -1.16E-13, -2.53429E-10, 1.16E-13, 2.56086E-10
DataValue, 2.5, -1, 2.5535300000000003E-10, 4.5000000000000004E-14, -2.54822E-10, 4.5000000000000004E-14, 2.5535300000000003E-10
DataValue, 2.6, -1, 2.56314E-10, 4.4E-14, -2.5467400000000005E-10, 4.4E-14, 2.56314E-10
DataValue, 2.7, -1, 2.5376200000000003E-10, -1.4900000000000002E-13, -2.52047E-10, 1.4900000000000002E-13, 2.5376200000000003E-10
DataValue, 2.8000000000000003, -1, 2.52349E-10, 1.41E-13, -2.50549E-10, 1.41E-13, 2.52349E-10
DataValue, 2.9, -1, 2.52905E-10, 1.57E-13, -2.50576E-10, 1.57E-13, 2.52905E-10
DataValue, 3, -1, 2.52453E-10, -1.03E-13, -2.5085900000000004E-10, 1.03E-13, 2.52453E-10
DataValue, 3.1, -1, 2.53469E-10, 1.3000000000000001E-14, -2.50627E-10, 1.3000000000000001E-14, 2.53469E-10
DataValue, 3.2, -1, 2.5104400000000003E-10, 1.3800000000000002E-13, -2.48975E-10, 1.3800000000000002E-13, 2.5104400000000003E-10
DataValue, 3.3000000000000003, -1, 2.48686E-10, -1.3E-13, -2.47161E-10, 1.3E-13, 2.48686E-10
DataValue, 3.4, -1, 2.4792E-10, 1E-15, -2.45311E-10, 1E-15, 2.4792E-10
DataValue, 3.5, -1, 2.46172E-10, 5E-14, -2.43914E-10, 5E-14, 2.46172E-10
DataValue, 3.6, -1, 2.4507E-10, -4.3000000000000006E-14, -2.43185E-10, 4.3000000000000006E-14, 2.4507E-10
DataValue, 3.7, -1, 2.4369E-10, 3.2E-14, -2.4403600000000003E-10, 3.2E-14, 2.4369E-10
DataValue, 3.8000000000000003, -1, 2.42853E-10, 1.82E-13, -2.4081E-10, 1.82E-13, 2.42853E-10
DataValue, 3.9, -1, 2.41513E-10, -5.4000000000000003E-14, -2.38743E-10, 5.4000000000000003E-14, 2.41513E-10
DataValue, 4, -1, 2.37152E-10, 5.3E-14, -2.35705E-10, 5.3E-14, 2.37152E-10
DataValue, 4.1, -1, 2.36874E-10, 1.58E-13, -2.33774E-10, 1.58E-13, 2.36874E-10
DataValue, 4.2, -1, 2.3449600000000003E-10, 4.5000000000000004E-14, -2.33553E-10, 4.5000000000000004E-14, 2.3449600000000003E-10
DataValue, 4.3, -1, 2.3431500000000003E-10, -7E-14, -2.3105100000000003E-10, 7E-14, 2.3431500000000003E-10
DataValue, 4.4, -1, 2.3045600000000002E-10, 1.09E-13, -2.2786900000000003E-10, 1.09E-13, 2.3045600000000002E-10
DataValue, 4.5, -1, 2.29283E-10, -3.4E-14, -2.25507E-10, 3.4E-14, 2.29283E-10
DataValue, 4.6000000000000005, -1, 2.25996E-10, -1.6E-14, -2.25655E-10, 1.6E-14, 2.25996E-10
DataValue, 4.7, -1, 2.2596300000000001E-10, 1.48E-13, -2.2340900000000002E-10, 1.48E-13, 2.2596300000000001E-10
DataValue, 4.8, -1, 2.2401200000000003E-10, -1.8000000000000002E-14, -2.2182000000000002E-10, 1.8000000000000002E-14, 2.2401200000000003E-10
DataValue, 4.9, -1, 2.21346E-10, 1.2000000000000001E-14, -2.1772000000000003E-10, 1.2000000000000001E-14, 2.21346E-10
DataValue, 5, -1, 2.1812600000000002E-10, 1.36E-13, -2.1555700000000003E-10, 1.36E-13, 2.1812600000000002E-10
DataValue, 5.1000000000000005, -1, 2.1656600000000003E-10, -3.5E-14, -2.13638E-10, 3.5E-14, 2.1656600000000003E-10
DataValue, 5.2, -1, 2.1662300000000002E-10, -5.4000000000000003E-14, -2.1412400000000002E-10, 5.4000000000000003E-14, 2.1662300000000002E-10
DataValue, 5.3, -1, 2.14229E-10, 1.25E-13, -2.14925E-10, 1.25E-13, 2.14229E-10
DataValue, 5.4, -1, 2.1451300000000002E-10, -7.3E-14, -2.1132800000000002E-10, 7.3E-14, 2.1451300000000002E-10
DataValue, 5.5, -1, 2.1118700000000002E-10, -1.1100000000000001E-13, -2.0891200000000002E-10, 1.1100000000000001E-13, 2.1118700000000002E-10
DataValue, 5.6000000000000005, -1, 2.0856300000000003E-10, 1.03E-13, -2.0698000000000002E-10, 1.03E-13, 2.0856300000000003E-10
DataValue, 5.7, -1, 2.07892E-10, 5.2000000000000006E-14, -2.0657600000000002E-10, 5.2000000000000006E-14, 2.07892E-10
DataValue, 5.8, -1, 2.06695E-10, -5.1000000000000004E-14, -2.0455100000000002E-10, 5.1000000000000004E-14, 2.06695E-10
DataValue, 5.9, -1, 2.0318300000000002E-10, 1.24E-13, -2.00811E-10, 1.24E-13, 2.0318300000000002E-10
DataValue, 6, -1, 1.9992600000000002E-10, 1.8000000000000002E-14, -1.97653E-10, 1.8000000000000002E-14, 1.9992600000000002E-10
DataValue, 6.1000000000000005, -1, 1.9923900000000002E-10, -1.3E-13, -1.9764600000000003E-10, 1.3E-13, 1.9923900000000002E-10
DataValue, 6.2, -1, 1.9741700000000003E-10, 1.0200000000000001E-13, -1.9544800000000002E-10, 1.0200000000000001E-13, 1.9741700000000003E-10
DataValue, 6.3, -1, 1.9597000000000002E-10, -1.1E-14, -1.94799E-10, 1.1E-14, 1.9597000000000002E-10
DataValue, 6.4, -1, 1.9403800000000002E-10, -1.5100000000000001E-13, -1.91789E-10, 1.5100000000000001E-13, 1.9403800000000002E-10
DataValue, 6.5, -1, 1.9243600000000003E-10, 8.6000000000000012E-14, -1.90593E-10, 8.6000000000000012E-14, 1.9243600000000003E-10
DataValue, 6.6000000000000005, -1, 1.91482E-10, -3.7E-14, -1.8893400000000002E-10, 3.7E-14, 1.91482E-10
DataValue, 6.7, -1, 1.8878700000000003E-10, -9.5000000000000012E-14, -1.8669200000000002E-10, 9.5000000000000012E-14, 1.8878700000000003E-10
DataValue, 6.8, -1, 1.8743600000000002E-10, 1.1100000000000001E-13, -1.8572100000000002E-10, 1.1100000000000001E-13, 1.8743600000000002E-10
DataValue, 6.9, -1, 1.8472E-10, 1E-15, -1.83192E-10, 1E-15, 1.8472E-10
DataValue, 7, -1, 1.83771E-10, -1.93E-13, -1.80513E-10, 1.93E-13, 1.83771E-10
DataValue, 0, 0, 3.8891400000000004E-10, 1.8000000000000002E-13, -3.9055200000000003E-10, 1.8000000000000002E-13, 3.8891400000000004E-10
DataValue, 0.1, 0, 3.19205E-07, 8E-15, -3.16825E-07, 8E-15, 3.19205E-07
DataValue, 0.2, 0, 5.66016E-07, 1E-15, -5.63916E-07, 1E-15, 5.66016E-07
DataValue, 0.3, 0, 7.51371E-07, -6.0000000000000005E-15, -7.4915699999999994E-07, 6.0000000000000005E-15, 7.51371E-07
DataValue, 0.4, 0, 8.83453E-07, 1.7900000000000002E-13, -8.80609E-07, 1.7900000000000002E-13, 8.83453E-07
DataValue, 0.5, 0, 9.7017E-07, 1.2600000000000002E-13, -9.6931E-07, 1.2600000000000002E-13, 9.7017E-07
DataValue, 0.6, 0, 1.02647E-06, -1.0500000000000001E-13, -1.02238E-06, 1.0500000000000001E-13, 1.02647E-06
DataValue, 0.70000000000000007, 0, 1.0583100000000002E-06, -6.7E-14, -1.05652E-06, 6.7E-14, 1.0583100000000002E-06
DataValue, 0.8, 0, 1.07862E-06, 8.6000000000000012E-14, -1.0773E-06, 8.6000000000000012E-14, 1.07862E-06
DataValue, 0.9, 0, 1.0918400000000001E-06, 9.0000000000000008E-14, -1.0887200000000002E-06, 9.0000000000000008E-14, 1.0918400000000001E-06
DataValue, 1, 0, 1.0990600000000002E-06, 2.4000000000000004E-13, -1.09637E-06, 2.4000000000000004E-13, 1.0990600000000002E-06
DataValue, 1.1, 0, 1.1038000000000001E-06, 5.9E-14, -1.10069E-06, 5.9E-14, 1.1038000000000001E-06
DataValue, 1.2, 0, 1.1076200000000001E-06, 1.77E-13, -1.10593E-06, 1.77E-13, 1.1076200000000001E-06
DataValue, 1.3, 0, 1.1115200000000002E-06, 2.0800000000000002E-13, -1.1090100000000002E-06, 2.0800000000000002E-13, 1.1115200000000002E-06
DataValue, 1.4000000000000001, 0, 1.11462E-06, -3.9000000000000004E-14, -1.1118400000000001E-06, 3.9000000000000004E-14, 1.11462E-06
DataValue, 1.5, 0, 1.1164300000000002E-06, 1.54E-13, -1.1144800000000002E-06, 1.54E-13, 1.1164300000000002E-06
DataValue, 1.6, 0, 1.1193900000000002E-06, 4.7E-14, -1.11667E-06, 4.7E-14, 1.1193900000000002E-06
DataValue, 1.7000000000000002, 0, 1.1202500000000002E-06, 6.2E-14, -1.1182000000000002E-06, 6.2E-14, 1.1202500000000002E-06
DataValue, 1.8, 0, 1.12221E-06, 1.06E-13, -1.1175400000000002E-06, 1.06E-13, 1.12221E-06
DataValue, 1.9000000000000001, 0, 1.1212400000000002E-06, -2.0700000000000003E-13, -1.11947E-06, 2.0700000000000003E-13, 1.1212400000000002E-06
DataValue, 2, 0, 1.12267E-06, -8.9000000000000012E-14, -1.1195900000000002E-06, 8.9000000000000012E-14, 1.12267E-06
DataValue, 2.1, 0, 1.12279E-06, 2.05E-13, -1.1205100000000002E-06, 2.05E-13, 1.12279E-06
DataValue, 2.2, 0, 1.1229E-06, -1.82E-13, -1.1201400000000001E-06, 1.82E-13, 1.1229E-06
DataValue, 2.3000000000000003, 0, 1.1234400000000002E-06, -7E-15, -1.1209700000000002E-06, 7E-15, 1.1234400000000002E-06
DataValue, 2.4, 0, 1.12424E-06, 5E-14, -1.12224E-06, 5E-14, 1.12424E-06
DataValue, 2.5, 0, 1.1248500000000001E-06, 3.1E-14, -1.1221800000000001E-06, 3.1E-14, 1.1248500000000001E-06
DataValue, 2.6, 0, 1.1249500000000001E-06, -6.1E-14, -1.1227100000000001E-06, 6.1E-14, 1.1249500000000001E-06
DataValue, 2.7, 0, 1.1261100000000002E-06, -6.0000000000000005E-15, -1.12312E-06, 6.0000000000000005E-15, 1.1261100000000002E-06
DataValue, 2.8000000000000003, 0, 1.1256200000000002E-06, 1.16E-13, -1.1236100000000002E-06, 1.16E-13, 1.1256200000000002E-06
DataValue, 2.9, 0, 1.1263400000000002E-06, 3.8E-14, -1.12411E-06, 3.8E-14, 1.1263400000000002E-06
DataValue, 3, 0, 1.1263300000000001E-06, 3.4E-14, -1.12392E-06, 3.4E-14, 1.1263300000000001E-06
DataValue, 3.1, 0, 1.12497E-06, 2.2200000000000001E-13, -1.1238100000000002E-06, 2.2200000000000001E-13, 1.12497E-06
DataValue, 3.2, 0, 1.1265700000000002E-06, 7.2000000000000009E-14, -1.1238300000000001E-06, 7.2000000000000009E-14, 1.1265700000000002E-06
DataValue, 3.3000000000000003, 0, 1.1258100000000002E-06, -3.3000000000000005E-14, -1.12279E-06, 3.3000000000000005E-14, 1.1258100000000002E-06
DataValue, 3.4, 0, 1.12579E-06, 1.2100000000000002E-13, -1.1257800000000002E-06, 1.2100000000000002E-13, 1.12579E-06
DataValue, 3.5, 0, 1.1275900000000002E-06, -3.8E-14, -1.1256800000000002E-06, 3.8E-14, 1.1275900000000002E-06
DataValue, 3.6, 0, 1.1277600000000002E-06, 1.8400000000000002E-13, -1.12536E-06, 1.8400000000000002E-13, 1.1277600000000002E-06
DataValue, 3.7, 0, 1.1273600000000002E-06, -1.2000000000000001E-14, -1.12629E-06, 1.2000000000000001E-14, 1.1273600000000002E-06
DataValue, 3.8000000000000003, 0, 1.1277800000000001E-06, 3.4E-14, -1.1272200000000001E-06, 3.4E-14, 1.1277800000000001E-06
DataValue, 3.9, 0, 1.1292400000000002E-06, -8.6000000000000012E-14, -1.1262800000000002E-06, 8.6000000000000012E-14, 1.1292400000000002E-06
DataValue, 4, 0, 1.12925E-06, -9.3000000000000008E-14, -1.12616E-06, 9.3000000000000008E-14, 1.12925E-06
DataValue, 4.1, 0, 1.1281500000000002E-06, 1.7300000000000002E-13, -1.1256500000000002E-06, 1.7300000000000002E-13, 1.1281500000000002E-06
DataValue, 4.2, 0, 1.1277500000000001E-06, 2E-15, -1.1246900000000002E-06, 2E-15, 1.1277500000000001E-06
DataValue, 4.3, 0, 1.1272600000000002E-06, 8.0000000000000013E-14, -1.1250800000000001E-06, 8.0000000000000013E-14, 1.1272600000000002E-06
DataValue, 4.4, 0, 1.1284E-06, 2.6500000000000003E-13, -1.1250200000000002E-06, 2.6500000000000003E-13, 1.1284E-06
DataValue, 4.5, 0, 1.1279900000000002E-06, 7.2000000000000009E-14, -1.12441E-06, 7.2000000000000009E-14, 1.1279900000000002E-06
DataValue, 4.6000000000000005, 0, 1.1267300000000001E-06, 1.3E-13, -1.1249E-06, 1.3E-13, 1.1267300000000001E-06
DataValue, 4.7, 0, 1.12761E-06, 8.8E-14, -1.1247500000000001E-06, 8.8E-14, 1.12761E-06
DataValue, 4.8, 0, 1.1268900000000001E-06, 8.0000000000000013E-14, -1.1250900000000002E-06, 8.0000000000000013E-14, 1.1268900000000001E-06
DataValue, 4.9, 0, 1.1283800000000002E-06, 3.06E-13, -1.1266700000000002E-06, 3.06E-13, 1.1283800000000002E-06
DataValue, 5, 0, 1.12807E-06, 1.1E-14, -1.12454E-06, 1.1E-14, 1.12807E-06
DataValue, 5.1000000000000005, 0, 1.1267400000000002E-06, 1.3100000000000002E-13, -1.12487E-06, 1.3100000000000002E-13, 1.1267400000000002E-06
